;$FILEVERSION=1.1
;$STARTTIME=44841.746617419
;
;   Start time: 07/10/2022 17:55:07.745.0
;   Generated by PCAN-View v5.0.3.852
;
;   Message Number
;   |         Time Offset (ms)
;   |         |        Type
;   |         |        |        ID (hex)
;   |         |        |        |     Data Length
;   |         |        |        |     |   Data Bytes (hex) ...
;   |         |        |        |     |   |
;---+--   ----+----  --+--  ----+---  +  -+ -- -- -- -- -- -- --
     1)         7.3  Warng  FFFFFFFF  4  00 00 00 08  BUSHEAVY 
     2)      5833.2  Rx         07DF  8  02 01 00 00 00 00 00 00 
     3)      5879.0  Rx         07E8  7  06 41 00 98 3B 00 11 
     4)     46280.0  Rx         07DF  8  02 01 00 00 00 00 00 00 
     5)     46314.6  Rx         07E8  7  06 41 00 98 3B 00 11 
     6)     46328.0  Rx         07DF  8  02 01 00 00 00 00 00 00 
     7)     46362.3  Rx         07E8  7  06 41 00 98 3B 00 11 
     8)     46376.0  Rx         07DF  8  02 01 20 00 00 00 00 00 
     9)     46410.4  Rx         07E8  7  06 41 20 A0 00 00 01 
    10)     46424.2  Rx         07DF  8  02 01 40 00 00 00 00 00 
    11)     46458.3  Rx         07E8  7  06 41 40 00 00 00 01 
    12)     46471.4  Rx         07DF  8  02 01 60 00 00 00 00 00 
    13)     46505.2  Rx         07E8  4  03 41 60 00 
    14)     46518.4  Rx         07DF  8  02 01 80 00 00 00 00 00 
    15)     46552.9  Rx         07E8  4  03 41 80 00 
    16)     46566.4  Rx         07DF  8  02 01 A0 00 00 00 00 00 
    17)     46600.9  Rx         07E8  4  03 41 A0 00 
    18)     46614.4  Rx         07DF  8  03 02 00 00 00 00 00 00 
    19)     46649.9  Rx         07E8  8  07 42 00 00 58 3A 00 01 
    20)     46663.4  Rx         07DF  8  03 02 20 00 00 00 00 00 
    21)     46697.7  Rx         07E8  8  07 42 20 00 20 00 00 01 
    22)     46711.3  Rx         07DF  8  03 02 40 00 00 00 00 00 
    23)     46745.9  Rx         07E8  8  07 42 40 00 00 00 00 00 
    24)     46759.2  Rx         07DF  8  02 06 00 00 00 00 00 00 
    25)     46793.3  Rx         07E8  7  06 46 00 00 00 00 01 
    26)     46806.2  Rx         07DF  8  02 06 20 00 00 00 00 00 
    27)     46841.5  Rx         07E8  7  06 46 20 00 00 00 01 
    28)     46855.4  Rx         07DF  8  02 06 40 00 00 00 00 00 
    29)     46889.5  Rx         07E8  7  06 46 40 00 00 00 01 
    30)     46902.5  Rx         07DF  8  02 06 60 00 00 00 00 00 
    31)     46937.4  Rx         07E8  7  06 46 60 00 00 00 01 
    32)     46950.6  Rx         07DF  8  02 06 80 00 00 00 00 00 
    33)     46984.7  Rx         07E8  7  06 46 80 00 00 00 01 
    34)     46998.5  Warng  FFFFFFFF  4  00 00 00 04  BUSLIGHT 
    35)     46998.5  Rx         07DF  8  02 06 A0 00 00 00 00 00 
    36)     47033.0  Rx         07E8  7  06 46 A0 00 00 00 01 
    37)     47046.8  Rx         07DF  8  02 08 00 00 00 00 00 00 
    38)     47081.4  Rx         07E8  7  06 48 00 00 00 00 00 
    39)     47095.2  Rx         07DF  8  02 09 00 00 00 00 00 00 
    40)     47129.0  Rx         07E8  7  06 49 00 50 00 00 00 
    41)     47142.8  Rx         07DF  8  02 01 00 00 00 00 00 00 
    42)     47176.5  Rx         07E8  7  06 41 00 98 3B 00 11 
    43)     47189.7  Rx         07DF  8  02 01 00 00 00 00 00 00 
    44)     47224.8  Rx         07E8  7  06 41 00 98 3B 00 11 
    45)     47237.8  Rx         07DF  8  02 01 00 00 00 00 00 00 
    46)     47272.4  Rx         07E8  7  06 41 00 98 3B 00 11 
    47)     47285.9  Rx         07DF  8  02 01 00 00 00 00 00 00 
    48)     47320.7  Rx         07E8  7  06 41 00 98 3B 00 11 
    49)     47334.1  Rx         07DF  8  02 01 00 00 00 00 00 00 
    50)     47369.2  Rx         07E8  7  06 41 00 98 3B 00 11 
    51)     47381.9  Rx         07DF  8  02 01 00 00 00 00 00 00 
    52)     47417.5  Rx         07E8  7  06 41 00 98 3B 00 11 
    53)     47431.2  Rx         07DF  8  02 01 00 00 00 00 00 00 
    54)     47465.2  Rx         07E8  7  06 41 00 98 3B 00 11 
    55)     47478.2  Rx         07DF  8  02 01 00 00 00 00 00 00 
    56)     47512.8  Rx         07E8  7  06 41 00 98 3B 00 11 
    57)     47526.4  Rx         07DF  8  02 01 00 00 00 00 00 00 
    58)     47560.5  Rx         07E8  7  06 41 00 98 3B 00 11 
    59)     47573.3  Rx         07DF  8  02 01 00 00 00 00 00 00 
    60)     47608.7  Rx         07E8  7  06 41 00 98 3B 00 11 
    61)     47622.4  Rx         07DF  8  02 01 00 00 00 00 00 00 
    62)     47656.3  Rx         07E8  7  06 41 00 98 3B 00 11 
    63)     47669.4  Rx         07DF  8  02 01 00 00 00 00 00 00 
    64)     47704.6  Rx         07E8  7  06 41 00 98 3B 00 11 
    65)     47718.4  Rx         07DF  8  02 01 00 00 00 00 00 00 
    66)     47752.2  Rx         07E8  7  06 41 00 98 3B 00 11 
    67)     47765.4  Rx         07DF  8  02 01 00 00 00 00 00 00 
    68)     47799.8  Rx         07E8  7  06 41 00 98 3B 00 11 
    69)     47812.4  Rx         07DF  8  02 01 00 00 00 00 00 00 
    70)     47848.9  Rx         07E8  7  06 41 00 98 3B 00 11 
    71)     47861.7  Rx         07DF  8  02 01 00 00 00 00 00 00 
    72)     47896.5  Rx         07E8  7  06 41 00 98 3B 00 11 
    73)     47909.8  Rx         07DF  8  02 01 00 00 00 00 00 00 
    74)     47944.4  Rx         07E8  7  06 41 00 98 3B 00 11 
    75)     47957.7  Rx         07DF  8  02 01 00 00 00 00 00 00 
    76)     47992.5  Rx         07E8  7  06 41 00 98 3B 00 11 
    77)     48005.8  Rx         07DF  8  02 01 00 00 00 00 00 00 
    78)     48040.2  Rx         07E8  7  06 41 00 98 3B 00 11 
    79)     48054.0  Rx         07DF  8  02 01 00 00 00 00 00 00 
    80)     48087.8  Rx         07E8  7  06 41 00 98 3B 00 11 
    81)     48101.0  Rx         07DF  8  02 01 00 00 00 00 00 00 
    82)     48136.5  Rx         07E8  7  06 41 00 98 3B 00 11 
    83)     48150.0  Rx         07DF  8  02 01 00 00 00 00 00 00 
    84)     48183.9  Rx         07E8  7  06 41 00 98 3B 00 11 
    85)     48197.0  Rx         07DF  8  02 01 00 00 00 00 00 00 
    86)     48231.6  Rx         07E8  7  06 41 00 98 3B 00 11 
    87)     48245.1  Rx         07DF  8  02 01 00 00 00 00 00 00 
    88)     48279.2  Rx         07E8  7  06 41 00 98 3B 00 11 
    89)     48292.4  Rx         07DF  8  02 01 00 00 00 00 00 00 
    90)     48327.2  Rx         07E8  7  06 41 00 98 3B 00 11 
    91)     48340.3  Rx         07DF  8  02 01 00 00 00 00 00 00 
    92)     48375.5  Rx         07E8  7  06 41 00 98 3B 00 11 
    93)     48388.2  Rx         07DF  8  02 01 00 00 00 00 00 00 
    94)     48423.2  Rx         07E8  7  06 41 00 98 3B 00 11 
    95)     48436.3  Rx         07DF  8  02 01 00 00 00 00 00 00 
    96)     48471.5  Rx         07E8  7  06 41 00 98 3B 00 11 
    97)     48484.5  Rx         07DF  8  02 01 00 00 00 00 00 00 
    98)     48519.6  Rx         07E8  7  06 41 00 98 3B 00 11 
    99)     48532.3  Rx         07DF  8  02 01 00 00 00 00 00 00 
   100)     48567.9  Rx         07E8  7  06 41 00 98 3B 00 11 
   101)     48581.4  Rx         07DF  8  02 01 00 00 00 00 00 00 
   102)     48615.5  Rx         07E8  7  06 41 00 98 3B 00 11 
   103)     48628.6  Rx         07DF  8  02 01 00 00 00 00 00 00 
   104)     48663.2  Rx         07E8  7  06 41 00 98 3B 00 11 
   105)     48676.8  Rx         07DF  8  02 01 00 00 00 00 00 00 
   106)     48711.4  Rx         07E8  7  06 41 00 98 3B 00 11 
   107)     48724.6  Rx         07DF  8  02 01 00 00 00 00 00 00 
   108)     48759.6  Rx         07E8  7  06 41 00 98 3B 00 11 
   109)     48772.8  Rx         07DF  8  02 01 00 00 00 00 00 00 
   110)     48806.6  Rx         07E8  7  06 41 00 98 3B 00 11 
   111)     48820.0  Rx         07DF  8  02 01 00 00 00 00 00 00 
   112)     48854.9  Rx         07E8  7  06 41 00 98 3B 00 11 
   113)     48867.9  Rx         07DF  8  02 01 00 00 00 00 00 00 
   114)     48902.5  Rx         07E8  7  06 41 00 98 3B 00 11 
   115)     48915.8  Rx         07DF  8  02 01 00 00 00 00 00 00 
   116)     48951.2  Rx         07E8  7  06 41 00 98 3B 00 11 
   117)     48964.0  Rx         07DF  8  02 01 00 00 00 00 00 00 
   118)     48998.5  Rx         07E8  7  06 41 00 98 3B 00 11 
   119)     49011.8  Rx         07DF  8  02 01 00 00 00 00 00 00 
   120)     49046.8  Rx         07E8  7  06 41 00 98 3B 00 11 
   121)     49060.0  Rx         07DF  8  02 01 00 00 00 00 00 00 
   122)     49094.4  Rx         07E8  7  06 41 00 98 3B 00 11 
   123)     49107.9  Rx         07DF  8  02 01 00 00 00 00 00 00 
   124)     49143.2  Rx         07E8  7  06 41 00 98 3B 00 11 
   125)     49156.0  Rx         07DF  8  02 01 00 00 00 00 00 00 
   126)     49190.6  Rx         07E8  7  06 41 00 98 3B 00 11 
   127)     49203.9  Rx         07DF  8  02 01 00 00 00 00 00 00 
   128)     49238.3  Rx         07E8  7  06 41 00 98 3B 00 11 
   129)     49250.9  Rx         07DF  8  02 01 00 00 00 00 00 00 
   130)     49287.1  Rx         07E8  7  06 41 00 98 3B 00 11 
   131)     49300.0  Rx         07DF  8  02 01 00 00 00 00 00 00 
   132)     49334.1  Rx         07E8  7  06 41 00 98 3B 00 11 
   133)     49347.0  Rx         07DF  8  02 01 00 00 00 00 00 00 
   134)     49382.9  Rx         07E8  7  06 41 00 98 3B 00 11 
   135)     49396.0  Rx         07DF  8  02 01 00 00 00 00 00 00 
   136)     49430.0  Rx         07E8  7  06 41 00 98 3B 00 11 
   137)     49443.0  Rx         07DF  8  02 01 00 00 00 00 00 00 
   138)     49478.3  Rx         07E8  7  06 41 00 98 3B 00 11 
   139)     49491.2  Rx         07DF  8  02 01 00 00 00 00 00 00 
   140)     49526.3  Rx         07E8  7  06 41 00 98 3B 00 11 
   141)     49539.3  Rx         07DF  8  02 01 00 00 00 00 00 00 
   142)     49574.6  Rx         07E8  7  06 41 00 98 3B 00 11 
   143)     49587.2  Rx         07DF  8  02 01 00 00 00 00 00 00 
   144)     49622.7  Rx         07E8  7  06 41 00 98 3B 00 11 
   145)     49636.2  Rx         07DF  8  02 01 00 00 00 00 00 00 
   146)     49670.6  Rx         07E8  7  06 41 00 98 3B 00 11 
   147)     49683.5  Rx         07DF  8  02 01 00 00 00 00 00 00 
   148)     49718.3  Rx         07E8  7  06 41 00 98 3B 00 11 
   149)     49731.4  Rx         07DF  8  02 01 00 00 00 00 00 00 
   150)     49766.5  Rx         07E8  7  06 41 00 98 3B 00 11 
   151)     49779.5  Rx         07DF  8  02 01 00 00 00 00 00 00 
   152)     49814.3  Rx         07E8  7  06 41 00 98 3B 00 11 
   153)     49827.4  Rx         07DF  8  02 01 00 00 00 00 00 00 
   154)     49861.9  Rx         07E8  7  06 41 00 98 3B 00 11 
   155)     49874.7  Rx         07DF  8  02 01 00 00 00 00 00 00 
   156)     49909.4  Rx         07E8  7  06 41 00 98 3B 00 11 
   157)     49922.5  Rx         07DF  8  02 01 00 00 00 00 00 00 
   158)     49958.5  Rx         07E8  7  06 41 00 98 3B 00 11 
   159)     49971.6  Rx         07DF  8  02 01 00 00 00 00 00 00 
   160)     50006.5  Rx         07E8  7  06 41 00 98 3B 00 11 
   161)     50019.8  Rx         07DF  8  02 01 00 00 00 00 00 00 
   162)     50053.5  Rx         07E8  7  06 41 00 98 3B 00 11 
   163)     50066.8  Rx         07DF  8  02 01 00 00 00 00 00 00 
   164)     50101.6  Rx         07E8  7  06 41 00 98 3B 00 11 
   165)     50114.7  Rx         07DF  8  02 01 00 00 00 00 00 00 
   166)     50149.6  Rx         07E8  7  06 41 00 98 3B 00 11 
   167)     50162.8  Rx         07DF  8  02 01 00 00 00 00 00 00 
   168)     50197.9  Rx         07E8  7  06 41 00 98 3B 00 11 
   169)     50210.7  Rx         07DF  8  02 01 00 00 00 00 00 00 
   170)     50245.3  Rx         07E8  7  06 41 00 98 3B 00 11 
   171)     50258.6  Rx         07DF  8  02 01 00 00 00 00 00 00 
   172)     50293.1  Rx         07E8  7  06 41 00 98 3B 00 11 
   173)     50305.8  Rx         07DF  8  02 01 00 00 00 00 00 00 
   174)     50341.2  Rx         07E8  7  06 41 00 98 3B 00 11 
   175)     50354.9  Rx         07DF  8  02 01 00 00 00 00 00 00 
   176)     50389.1  Rx         07E8  7  06 41 00 98 3B 00 11 
   177)     50401.9  Rx         07DF  8  02 01 00 00 00 00 00 00 
   178)     50436.9  Rx         07E8  7  06 41 00 98 3B 00 11 
   179)     50449.8  Rx         07DF  8  02 01 00 00 00 00 00 00 
   180)     50484.7  Rx         07E8  7  06 41 00 98 3B 00 11 
   181)     50497.9  Rx         07DF  8  02 01 00 00 00 00 00 00 
   182)     50533.7  Rx         07E8  7  06 41 00 98 3B 00 11 
   183)     50546.9  Rx         07DF  8  02 01 00 00 00 00 00 00 
   184)     50581.3  Rx         07E8  7  06 41 00 98 3B 00 11 
   185)     50594.8  Rx         07DF  8  02 01 00 00 00 00 00 00 
   186)     50629.5  Rx         07E8  7  06 41 00 98 3B 00 11 
   187)     50642.9  Rx         07DF  8  02 01 00 00 00 00 00 00 
   188)     50676.6  Rx         07E8  7  06 41 00 98 3B 00 11 
   189)     50690.0  Rx         07DF  8  02 01 00 00 00 00 00 00 
   190)     50724.9  Rx         07E8  7  06 41 00 98 3B 00 11 
   191)     50737.8  Rx         07DF  8  02 01 00 00 00 00 00 00 
   192)     50772.5  Rx         07E8  7  06 41 00 98 3B 00 11 
   193)     50786.0  Rx         07DF  8  02 01 00 00 00 00 00 00 
   194)     50820.6  Rx         07E8  7  06 41 00 98 3B 00 11 
   195)     50834.1  Rx         07DF  8  02 01 00 00 00 00 00 00 
   196)     50868.2  Rx         07E8  7  06 41 00 98 3B 00 11 
   197)     50881.1  Rx         07DF  8  02 01 00 00 00 00 00 00 
   198)     50916.5  Rx         07E8  7  06 41 00 98 3B 00 11 
   199)     50929.0  Rx         07DF  8  02 01 00 00 00 00 00 00 
   200)     50964.1  Rx         07E8  7  06 41 00 98 3B 00 11 
   201)     50977.2  Rx         07DF  8  02 01 00 00 00 00 00 00 
   202)     51012.3  Rx         07E8  7  06 41 00 98 3B 00 11 
   203)     51025.2  Rx         07DF  8  02 01 00 00 00 00 00 00 
   204)     51060.0  Rx         07E8  7  06 41 00 98 3B 00 11 
   205)     51073.1  Rx         07DF  8  02 01 00 00 00 00 00 00 
   206)     51108.2  Rx         07E8  7  06 41 00 98 3B 00 11 
   207)     51121.2  Rx         07DF  8  02 01 00 00 00 00 00 00 
   208)     51155.9  Rx         07E8  7  06 41 00 98 3B 00 11 
   209)     51169.4  Rx         07DF  8  02 01 00 00 00 00 00 00 
   210)     51204.1  Rx         07E8  7  06 41 00 98 3B 00 11 
   211)     51217.6  Rx         07DF  8  02 01 00 00 00 00 00 00 
   212)     51251.7  Rx         07E8  7  06 41 00 98 3B 00 11 
   213)     51264.5  Rx         07DF  8  02 01 00 00 00 00 00 00 
   214)     51300.0  Rx         07E8  7  06 41 00 98 3B 00 11 
   215)     51313.3  Rx         07DF  8  02 01 00 00 00 00 00 00 
   216)     51347.6  Rx         07E8  7  06 41 00 98 3B 00 11 
   217)     51360.6  Rx         07DF  8  02 01 00 00 00 00 00 00 
   218)     51395.9  Rx         07E8  7  06 41 00 98 3B 00 11 
   219)     51409.6  Rx         07DF  8  02 01 00 00 00 00 00 00 
   220)     51443.6  Rx         07E8  7  06 41 00 98 3B 00 11 
   221)     51456.6  Rx         07DF  8  02 01 00 00 00 00 00 00 
   222)     51492.4  Rx         07E8  7  06 41 00 98 3B 00 11 
   223)     51505.4  Rx         07DF  8  02 01 00 00 00 00 00 00 
   224)     51540.0  Rx         07E8  7  06 41 00 98 3B 00 11 
   225)     51552.4  Rx         07DF  8  02 01 00 00 00 00 00 00 
   226)     51587.8  Rx         07E8  7  06 41 00 98 3B 00 11 
   227)     51600.5  Rx         07DF  8  02 01 00 00 00 00 00 00 
   228)     51635.8  Rx         07E8  7  06 41 00 98 3B 00 11 
   229)     51648.7  Rx         07DF  8  02 01 00 00 00 00 00 00 
   230)     51683.4  Rx         07E8  7  06 41 00 98 3B 00 11 
   231)     51696.6  Rx         07DF  8  02 01 00 00 00 00 00 00 
   232)     51731.5  Rx         07E8  7  06 41 00 98 3B 00 11 
   233)     51744.7  Rx         07DF  8  02 01 00 00 00 00 00 00 
   234)     51779.8  Rx         07E8  7  06 41 00 98 3B 00 11 
   235)     51792.9  Rx         07DF  8  02 01 00 00 00 00 00 00 
   236)     51827.4  Rx         07E8  7  06 41 00 98 3B 00 11 
   237)     51840.8  Rx         07DF  8  02 01 00 00 00 00 00 00 
   238)     51875.6  Rx         07E8  7  06 41 00 98 3B 00 11 
   239)     51888.7  Rx         07DF  8  02 01 00 00 00 00 00 00 
   240)     51923.2  Rx         07E8  7  06 41 00 98 3B 00 11 
   241)     51935.9  Rx         07DF  8  02 01 00 00 00 00 00 00 
   242)     51970.9  Rx         07E8  7  06 41 00 98 3B 00 11 
   243)     51983.8  Rx         07DF  8  02 01 00 00 00 00 00 00 
   244)     52019.7  Rx         07E8  7  06 41 00 98 3B 00 11 
   245)     52032.9  Rx         07DF  8  02 01 00 00 00 00 00 00 
   246)     52067.0  Rx         07E8  7  06 41 00 98 3B 00 11 
   247)     52080.1  Rx         07DF  8  02 01 00 00 00 00 00 00 
   248)     52115.3  Rx         07E8  7  06 41 00 98 3B 00 11 
   249)     52128.0  Rx         07DF  8  02 01 00 00 00 00 00 00 
   250)     52163.1  Rx         07E8  7  06 41 00 98 3B 00 11 
   251)     52176.2  Rx         07DF  8  02 01 00 00 00 00 00 00 
   252)     52210.6  Rx         07E8  7  06 41 00 98 3B 00 11 
   253)     52224.1  Rx         07DF  8  02 01 00 00 00 00 00 00 
   254)     52258.8  Rx         07E8  7  06 41 00 98 3B 00 11 
   255)     52272.2  Rx         07DF  8  02 01 00 00 00 00 00 00 
   256)     52307.1  Rx         07E8  7  06 41 00 98 3B 00 11 
   257)     52320.1  Rx         07DF  8  02 01 00 00 00 00 00 00 
   258)     52354.6  Rx         07E8  7  06 41 00 98 3B 00 11 
   259)     52367.3  Rx         07DF  8  02 01 00 00 00 00 00 00 
   260)     52402.6  Rx         07E8  7  06 41 00 98 3B 00 11 
   261)     52418.3  Rx         07DF  8  02 01 00 00 00 00 00 00 
   262)     52451.2  Rx         07E8  7  06 41 00 98 3B 00 11 
   263)     52464.3  Rx         07DF  8  02 01 00 00 00 00 00 00 
   264)     52498.3  Rx         07E8  7  06 41 00 98 3B 00 11 
   265)     52511.3  Rx         07DF  8  02 01 00 00 00 00 00 00 
   266)     52546.2  Rx         07E8  7  06 41 00 98 3B 00 11 
   267)     52559.4  Rx         07DF  8  02 01 00 00 00 00 00 00 
   268)     52594.9  Rx         07E8  7  06 41 00 98 3B 00 11 
   269)     52607.6  Rx         07DF  8  02 01 00 00 00 00 00 00 
   270)     52643.0  Rx         07E8  7  06 41 00 98 3B 00 11 
   271)     52656.7  Rx         07DF  8  02 01 00 00 00 00 00 00 
   272)     52690.9  Rx         07E8  7  06 41 00 98 3B 00 11 
   273)     52703.7  Rx         07DF  8  02 01 00 00 00 00 00 00 
   274)     52738.4  Rx         07E8  7  06 41 00 98 3B 00 11 
   275)     52751.9  Rx         07DF  8  02 01 01 00 00 00 00 00 
   276)     52786.6  Rx         07E8  7  06 41 01 00 06 80 00 
   277)     52802.0  Rx         07DF  8  02 01 02 00 00 00 00 00 
   278)     52833.4  Rx         07E8  4  03 41 02 00 
   279)     52867.1  Rx         07DF  8  02 01 03 00 00 00 00 00 
   280)     52913.2  Rx         07E8  4  03 41 03 00 
   281)     52978.2  Rx         07DF  8  02 01 04 00 00 00 00 00 
   282)     53010.1  Rx         07E8  4  03 41 04 00 
   283)     53026.2  Rx         07DF  8  02 01 05 00 00 00 00 00 
   284)     53057.7  Rx         07E8  4  03 41 05 4C 
   285)     53076.2  Rx         07DF  8  02 01 06 00 00 00 00 00 
   286)     53123.1  Rx         07E8  4  03 41 06 00 
   287)     53172.1  Rx         07DF  8  02 01 07 00 00 00 00 00 
   288)     53218.2  Rx         07E8  4  03 41 07 00 
   289)     53251.5  Rx         07DF  8  02 01 08 00 00 00 00 00 
   290)     53297.6  Rx         07E8  4  03 41 08 00 
   291)     53339.2  Rx         07DF  8  02 01 09 00 00 00 00 00 
   292)     53377.3  Rx         07E8  4  03 41 09 00 
   293)     53456.1  Rx         07DF  8  02 01 0A 00 00 00 00 00 
   294)     53489.9  Rx         07E8  4  03 41 0A 00 
   295)     53538.1  Rx         07DF  8  02 01 0B 00 00 00 00 00 
   296)     53585.1  Rx         07E8  4  03 41 0B 00 
   297)     53601.1  Rx         07DF  8  02 01 0C 00 00 00 00 00 
   298)     53633.6  Rx         07E8  5  04 41 0C 00 00 
   299)     53650.1  Rx         07DF  8  02 01 0D 00 00 00 00 00 
   300)     53705.0  Rx         07E8  4  03 41 0D 00 
   301)     53721.0  Rx         07DF  8  02 01 0E 00 00 00 00 00 
   302)     53760.3  Rx         07E8  4  03 41 0E 00 
   303)     53837.1  Rx         07DF  8  02 01 0F 00 00 00 00 00 
   304)     53882.0  Rx         07E8  4  03 41 0F 00 
   305)     53898.1  Rx         07DF  8  02 01 10 00 00 00 00 00 
   306)     53967.6  Rx         07E8  4  03 41 10 00 
   307)     54009.2  Rx         07DF  8  02 01 00 00 00 00 00 00 
   308)     54052.8  Rx         07E8  7  06 41 00 98 3B 00 11 
   309)     54074.1  Rx         07DF  8  01 03 00 00 00 00 00 00 
   310)     54111.4  Rx         07E8  3  02 43 00 
   311)     54132.1  Rx         07DF  8  01 07 00 00 00 00 00 00 
   312)     54176.0  Rx         07E8  3  02 47 00 
   313)     54192.6  Rx         07DF  8  02 01 01 00 00 00 00 00 
   314)     54224.9  Rx         07E8  7  06 41 01 00 06 80 00 
   315)     54239.0  Rx         07DF  8  02 01 04 00 00 00 00 00 
   316)     54271.9  Rx         07E8  4  03 41 04 00 
   317)     54288.0  Rx         07DF  8  02 01 05 00 00 00 00 00 
   318)     54320.3  Rx         07E8  4  03 41 05 4C 
   319)     54340.6  Rx         07DF  8  02 01 0B 00 00 00 00 00 
   320)     54386.3  Rx         07E8  4  03 41 0B 00 
   321)     54402.2  Rx         07DF  8  02 01 0C 00 00 00 00 00 
   322)     54447.9  Rx         07E8  5  04 41 0C 00 00 
   323)     54463.9  Rx         07DF  8  02 01 0D 00 00 00 00 00 
   324)     54495.4  Rx         07E8  4  03 41 0D 00 
   325)     54511.9  Rx         07DF  8  02 01 0F 00 00 00 00 00 
   326)     54544.2  Rx         07E8  4  03 41 0F 00 
   327)     54564.2  Rx         07DF  8  02 01 10 00 00 00 00 00 
   328)     54607.2  Rx         07E8  4  03 41 10 00 
   329)     54624.0  Rx         07DF  8  02 01 21 00 00 00 00 00 
   330)     54655.9  Rx         07E8  5  04 41 21 00 00 
   331)     54691.1  Rx         07DF  8  02 01 00 00 00 00 00 00 
   332)     54735.9  Rx         07E8  7  06 41 00 98 3B 00 11 
   333)     54749.1  Rx         07DF  8  01 03 00 00 00 00 00 00 
   334)     54782.8  Rx         07E8  3  02 43 00 
   335)     54796.1  Rx         07DF  8  01 07 00 00 00 00 00 00 
   336)     54831.0  Rx         07E8  3  02 47 00 
   337)     54845.4  Rx         07DF  8  02 01 01 00 00 00 00 00 
   338)     54880.5  Rx         07E8  7  06 41 01 00 06 80 00 
   339)     54894.2  Rx         07DF  8  02 01 04 00 00 00 00 00 
   340)     54926.7  Rx         07E8  4  03 41 04 00 
   341)     54943.3  Rx         07DF  8  02 01 05 00 00 00 00 00 
   342)     54975.0  Rx         07E8  4  03 41 05 4C 
   343)     54995.9  Rx         07DF  8  02 01 0B 00 00 00 00 00 
   344)     55039.7  Rx         07E8  4  03 41 0B 00 
   345)     55056.0  Rx         07DF  8  02 01 0C 00 00 00 00 00 
   346)     55087.6  Rx         07E8  5  04 41 0C 00 00 
   347)     55105.1  Rx         07DF  8  02 01 0D 00 00 00 00 00 
   348)     55154.1  Rx         07E8  4  03 41 0D 00 
   349)     55170.0  Rx         07DF  8  02 01 0F 00 00 00 00 00 
   350)     55215.0  Rx         07E8  4  03 41 0F 00 
   351)     55230.9  Rx         07DF  8  02 01 10 00 00 00 00 00 
   352)     55268.1  Rx         07E8  4  03 41 10 00 
   353)     55285.1  Rx         07DF  8  02 01 21 00 00 00 00 00 
   354)     55327.4  Rx         07E8  5  04 41 21 00 00 
   355)     55356.1  Rx         07DF  8  02 01 00 00 00 00 00 00 
   356)     55391.5  Rx         07E8  7  06 41 00 98 3B 00 11 
   357)     55405.1  Rx         07DF  8  01 03 00 00 00 00 00 00 
   358)     55438.2  Rx         07E8  3  02 43 00 
   359)     55453.5  Rx         07DF  8  01 07 00 00 00 00 00 00 
   360)     55486.3  Rx         07E8  3  02 47 00 
   361)     55499.9  Rx         07DF  8  02 01 01 00 00 00 00 00 
   362)     55535.8  Rx         07E8  7  06 41 01 00 06 80 00 
   363)     55552.7  Rx         07DF  8  02 01 04 00 00 00 00 00 
   364)     55601.5  Rx         07E8  4  03 41 04 00 
   365)     55618.0  Rx         07DF  8  02 01 05 00 00 00 00 00 
   366)     55662.8  Rx         07E8  4  03 41 05 4C 
   367)     55679.0  Rx         07DF  8  02 01 0B 00 00 00 00 00 
   368)     55709.8  Rx         07E8  4  03 41 0B 00 
   369)     55727.2  Rx         07DF  8  02 01 0C 00 00 00 00 00 
   370)     55758.4  Rx         07E8  5  04 41 0C 00 00 
   371)     55776.1  Rx         07DF  8  02 01 0D 00 00 00 00 00 
   372)     55822.5  Rx         07E8  4  03 41 0D 00 
   373)     55840.2  Rx         07DF  8  02 01 0F 00 00 00 00 00 
   374)     55886.8  Rx         07E8  4  03 41 0F 00 
   375)     55903.0  Rx         07DF  8  02 01 10 00 00 00 00 00 
   376)     55933.8  Rx         07E8  4  03 41 10 00 
   377)     55951.1  Rx         07DF  8  02 01 21 00 00 00 00 00 
   378)     55998.5  Rx         07E8  5  04 41 21 00 00 
   379)     56028.1  Rx         07DF  8  02 01 00 00 00 00 00 00 
   380)     56062.5  Rx         07E8  7  06 41 00 98 3B 00 11 
